
T3A0C 000:557 SEGGER J-Link V6.10i Log File (0001ms, 0045ms total)
T3A0C 000:557 DLL Compiled: Oct 25 2016 19:31:51 (0001ms, 0045ms total)
T3A0C 000:557 Logging started @ 2018-02-25 13:36 (0001ms, 0045ms total)
T3A0C 000:558 JLINK_SetWarnOutHandler(...) (0000ms, 0045ms total)
T3A0C 000:558 JLINK_OpenEx(...)
Firmware: J-Link V9 compiled Dec  1 2017 14:40:21
Hardware: V9.20
Feature(s): RDI, GDB, FlashDL, FlashBP, JFlash, RDDIWEBSRV Webserver running on local port 19080 (0095ms, 0140ms total)
T3A0C 000:558   returns O.K. (0095ms, 0140ms total)
T3A0C 000:653 JLINK_SetErrorOutHandler(...) (0000ms, 0140ms total)
T3A0C 000:653 JLINK_ExecCommand("ProjectFile = "C:\infantry\Engineer-master\engineer\MDK-ARM\JLinkSettings.ini"", ...).   returns 0x00 (0141ms, 0281ms total)
T3A0C 000:800 JLINK_ExecCommand("Device = STM32F427VITx", ...). Device "STM32F427VI" selected.  returns 0x00 (0027ms, 0308ms total)
T3A0C 000:828 JLINK_ExecCommand("DisableConnectionTimeout", ...).   returns 0x01 (0000ms, 0308ms total)
T3A0C 000:828 JLINK_GetHardwareVersion()  returns 0x16760 (0000ms, 0308ms total)
T3A0C 000:828 JLINK_GetDLLVersion()  returns 61009 (0000ms, 0308ms total)
T3A0C 000:828 JLINK_GetFirmwareString(...) (0000ms, 0308ms total)
T3A0C 001:010 JLINK_GetDLLVersion()  returns 61009 (0000ms, 0308ms total)
T3A0C 001:010 JLINK_GetCompileDateTime() (0000ms, 0308ms total)
T3A0C 001:057 JLINK_GetFirmwareString(...) (0000ms, 0308ms total)
T3A0C 001:111 JLINK_GetHardwareVersion()  returns 0x16760 (0000ms, 0308ms total)
T3A0C 001:274 JLINK_TIF_Select(JLINKARM_TIF_SWD)  returns 0x00 (0001ms, 0309ms total)
T3A0C 001:275 JLINK_SetSpeed(5000) (0000ms, 0309ms total)
T3A0C 001:275 JLINK_GetId() >0x108 TIF>Found SWD-DP with ID 0x2BA01477 >0x0D TIF> >0x28 TIF> >0x0D TIF> >0x28 TIF> >0x0D TIF> >0x28 TIF> >0x0D TIF> >0x28 TIF> >0x0D TIF> >0x21 TIF> >0x0D TIF> >0x28 TIF> >0x0D TIF> >0x28 TIF> >0x0D TIF> >0x28 TIF> >0x0D TIF> >0x21 TIF> >0x0D TIF> >0x21 TIF> >0x0D TIF> >0x28 TIF> >0x0D TIF> >0x21 TIF> >0x0D TIF> >0x21 TIF> >0x0D TIF> >0x28 TIF> >0x0D TIF> >0x28 TIF> >0x0D TIF> >0x28 TIF> >0x0D TIF> >0x21 TIF> >0x0D TIF> >0x21 TIF> >0x0D TIF> >0x28 TIF> >0x0D TIF>
 >0x28 TIF> >0x0D TIF> >0x28 TIF> >0x0D TIF> >0x21 TIF> >0x0D TIF> >0x21 TIF> >0x0D TIF> >0x28 TIF> >0x0D TIF> >0x21 TIF> >0x0D TIF> >0x21 TIF> >0x0D TIF> >0x28 TIF> >0x0D TIF> >0x21 TIF> >0x0D TIF> >0x21 TIF> >0x0D TIF> >0x28 TIF> >0x0D TIF> >0x21 TIF> >0x0D TIF> >0x21 TIF> >0x108 TIF>Found SWD-DP with ID 0x2BA01477 >0x0D TIF> >0x28 TIF> >0x0D TIF> >0x28 TIF> >0x0D TIF> >0x28 TIF> >0x0D TIF> >0x28 TIF> >0x0D TIF> >0x21 TIF> >0x0D TIF> >0x28 TIF> >0x0D TIF> >0x28 TIF> >0x0D TIF> >0x21 TIF> >0x0D TIF>
 >0x21 TIF> >0x0D TIF> >0x21 TIF>AP-IDR: 0x24770011, Type: AHB-AP >0x0D TIF> >0x28 TIF> >0x0D TIF> >0x28 TIF> >0x0D TIF> >0x28 TIF> >0x0D TIF> >0x21 TIF> >0x0D TIF> >0x21 TIF> >0x0D TIF> >0x28 TIF> >0x0D TIF> >0x21 TIF> >0x0D TIF> >0x21 TIF>Found Cortex-M4 r0p1, Little endian. -- CPU_ReadMem(4 bytes @ 0xE000EDF0) -- CPU_WriteMem(4 bytes @ 0xE000EDF0) -- CPU_ReadMem(4 bytes @ 0xE0002000)FPUnit: 6 code (BP) slots and 2 literal slots -- CPU_ReadMem(4 bytes @ 0xE000EDFC) -- CPU_WriteMem(4 bytes @ 0xE000EDFC)
 -- CPU_ReadMem(4 bytes @ 0xE0001000) -- CPU_WriteMem(4 bytes @ 0xE0001000) -- CPU_ReadMem(4 bytes @ 0xE000ED88) -- CPU_WriteMem(4 bytes @ 0xE000ED88) -- CPU_ReadMem(4 bytes @ 0xE000ED88) -- CPU_WriteMem(4 bytes @ 0xE000ED88)CoreSight components:ROMTbl 0 @ E00FF000 -- CPU_ReadMem(16 bytes @ 0xE00FF000) -- CPU_ReadMem(16 bytes @ 0xE000EFF0) -- CPU_ReadMem(16 bytes @ 0xE000EFE0)ROMTbl 0 [0]: FFF0F000, CID: B105E00D, PID: 000BB00C SCS -- CPU_ReadMem(16 bytes @ 0xE0001FF0)
 -- CPU_ReadMem(16 bytes @ 0xE0001FE0)ROMTbl 0 [1]: FFF02000, CID: B105E00D, PID: 003BB002 DWT -- CPU_ReadMem(16 bytes @ 0xE0002FF0) -- CPU_ReadMem(16 bytes @ 0xE0002FE0)ROMTbl 0 [2]: FFF03000, CID: B105E00D, PID: 002BB003 FPB -- CPU_ReadMem(16 bytes @ 0xE0000FF0) -- CPU_ReadMem(16 bytes @ 0xE0000FE0)ROMTbl 0 [3]: FFF01000, CID: B105E00D, PID: 003BB001 ITM -- CPU_ReadMem(16 bytes @ 0xE00FF010) -- CPU_ReadMem(16 bytes @ 0xE0040FF0) -- CPU_ReadMem(16 bytes @ 0xE0040FE0)
ROMTbl 0 [4]: FFF41000, CID: B105900D, PID: 000BB9A1 TPIU -- CPU_ReadMem(16 bytes @ 0xE0041FF0) -- CPU_ReadMem(16 bytes @ 0xE0041FE0)ROMTbl 0 [5]: FFF42000, CID: B105900D, PID: 000BB925 ETM >0x0D TIF> >0x21 TIF>  returns 0x2BA01477 (0720ms, 1029ms total)
T3A0C 001:995 JLINK_GetDLLVersion()  returns 61009 (0000ms, 1029ms total)
T3A0C 001:995 JLINK_CORE_GetFound()  returns 0xE0000FF (0001ms, 1030ms total)
T3A0C 001:996 JLINK_GetDebugInfo(0x100) -- Value=0xE00FF000  returns 0x00 (0000ms, 1030ms total)
T3A0C 002:034 JLINK_GetDebugInfo(0x100) -- Value=0xE00FF000  returns 0x00 (0000ms, 1030ms total)
T3A0C 002:034 JLINK_GetDebugInfo(0x101) -- Value=0xE0041000  returns 0x00 (0000ms, 1030ms total)
T3A0C 002:034 JLINK_GetDebugInfo(0x102) -- Value=0x00000000  returns 0x00 (0000ms, 1030ms total)
T3A0C 002:034 JLINK_GetDebugInfo(0x103) -- Value=0xE0040000  returns 0x00 (0000ms, 1030ms total)
T3A0C 002:034 JLINK_GetDebugInfo(0x104) -- Value=0xE0000000  returns 0x00 (0000ms, 1030ms total)
T3A0C 002:034 JLINK_GetDebugInfo(0x105) -- Value=0xE0001000  returns 0x00 (0000ms, 1030ms total)
T3A0C 002:034 JLINK_GetDebugInfo(0x106) -- Value=0xE0002000  returns 0x00 (0000ms, 1030ms total)
T3A0C 002:034 JLINK_GetDebugInfo(0x107) -- Value=0xE000E000  returns 0x00 (0000ms, 1030ms total)
T3A0C 002:034 JLINK_GetDebugInfo(0x10C) -- Value=0xE000EDF0  returns 0x00 (0000ms, 1030ms total)
T3A0C 002:034 JLINK_ReadMemU32(0xE000EF40, 0x0001 Items, ...) -- CPU is running -- CPU_ReadMem(4 bytes @ 0xE000EF40) - Data: 21 00 11 10  returns 0x01 (0001ms, 1031ms total)
T3A0C 002:035 JLINK_ReadMemU32(0xE000EF44, 0x0001 Items, ...) -- CPU is running -- CPU_ReadMem(4 bytes @ 0xE000EF44) - Data: 11 00 00 11  returns 0x01 (0000ms, 1031ms total)
T3A0C 002:035 JLINK_ReadMemU32(0xE000ED00, 0x0001 Items, ...) -- CPU is running -- CPU_ReadMem(4 bytes @ 0xE000ED00) - Data: 41 C2 0F 41  returns 0x01 (0001ms, 1032ms total)
T3A0C 002:036 JLINK_SetResetType(JLINKARM_RESET_TYPE_NORMAL)  returns JLINKARM_RESET_TYPE_NORMAL (0000ms, 1032ms total)
T3A0C 002:036 JLINK_Reset() -- CPU is running -- CPU_WriteMem(4 bytes @ 0xE000EDF0) -- CPU is running -- CPU_WriteMem(4 bytes @ 0xE000EDFC) >0x35 TIF> -- CPU is running -- CPU_WriteMem(4 bytes @ 0xE000ED0C) -- CPU is running -- CPU_ReadMem(4 bytes @ 0xE000EDF0) -- CPU is running -- CPU_ReadMem(4 bytes @ 0xE000EDF0) -- CPU is running -- CPU_WriteMem(4 bytes @ 0xE000EDF0) -- CPU is running -- CPU_WriteMem(4 bytes @ 0xE000EDFC) -- CPU is running -- CPU_ReadMem(4 bytes @ 0xE000EDF0)
 -- CPU_WriteMem(4 bytes @ 0xE0002000) -- CPU_ReadMem(4 bytes @ 0xE000EDFC) -- CPU_ReadMem(4 bytes @ 0xE0001000) (0018ms, 1050ms total)
T3A0C 002:054 JLINK_Halt()  returns 0x00 (0000ms, 1050ms total)
T3A0C 002:054 JLINK_IsHalted()  returns TRUE (0000ms, 1050ms total)
T3A0C 002:054 JLINK_ReadMemU32(0xE000EDF0, 0x0001 Items, ...) -- CPU_ReadMem(4 bytes @ 0xE000EDF0) - Data: 03 00 03 00  returns 0x01 (0000ms, 1050ms total)
T3A0C 002:055 JLINK_WriteU32(0xE000EDF0, 0xA05F0003) -- CPU_WriteMem(4 bytes @ 0xE000EDF0)  returns 0x00 (0000ms, 1051ms total)
T3A0C 002:055 JLINK_WriteU32(0xE000EDFC, 0x01000000) -- CPU_WriteMem(4 bytes @ 0xE000EDFC)  returns 0x00 (0000ms, 1051ms total)
T3A0C 002:208 JLINK_GetHWStatus(...)  returns 0x00 (0000ms, 1051ms total)
T3A0C 002:320 JLINK_GetNumBPUnits(Type = 0xFFFFFF00)  returns 0x06 (0000ms, 1051ms total)
T3A0C 002:320 JLINK_GetNumBPUnits(Type = 0xF0)  returns 0x2000 (0000ms, 1051ms total)
T3A0C 002:320 JLINK_GetNumWPUnits()  returns 0x04 (0000ms, 1051ms total)
T3A0C 002:510 JLINK_GetSpeed()  returns 0xFA0 (0001ms, 1052ms total)
T3A0C 002:640 JLINK_ReadMemU32(0xE000E004, 0x0001 Items, ...) -- CPU_ReadMem(4 bytes @ 0xE000E004) - Data: 02 00 00 00  returns 0x01 (0001ms, 1053ms total)
T3A0C 002:641 JLINK_ReadMemU32(0xE000E004, 0x0001 Items, ...) -- CPU_ReadMem(4 bytes @ 0xE000E004) - Data: 02 00 00 00  returns 0x01 (0000ms, 1053ms total)
T3A0C 002:641 JLINK_WriteMem(0xE0001000, 0x001C Bytes, ...) - Data: 01 00 00 00 00 00 00 00 00 00 00 00 00 00 00 00 ... -- CPU_WriteMem(28 bytes @ 0xE0001000)  returns 0x1C (0003ms, 1056ms total)
T3A0C 002:644 JLINK_ReadMem (0xE0001000, 0x001C Bytes, ...) -- CPU_ReadMem(28 bytes @ 0xE0001000) - Data: 01 00 00 40 00 00 00 00 00 00 00 00 00 00 00 00 ...  returns 0x00 (0000ms, 1056ms total)
T3A0C 002:644 JLINK_Halt()  returns 0x00 (0001ms, 1057ms total)
T3A0C 002:645 JLINK_IsHalted()  returns TRUE (0000ms, 1057ms total)
T3A0C 002:672 JLINK_WriteMem(0x20000000, 0x0198 Bytes, ...) - Data: 00 BE 0A E0 0D 78 2D 06 68 40 08 24 40 00 00 D3 ... -- CPU_WriteMem(408 bytes @ 0x20000000)  returns 0x198 (0004ms, 1061ms total)
T3A0C 002:676 JLINK_WriteReg(R0, 0x08000000)  returns 0x00 (0000ms, 1061ms total)
T3A0C 002:676 JLINK_WriteReg(R1, 0x00B71B00)  returns 0x00 (0000ms, 1061ms total)
T3A0C 002:676 JLINK_WriteReg(R2, 0x00000001)  returns 0x00 (0000ms, 1061ms total)
T3A0C 002:676 JLINK_WriteReg(R3, 0x00000000)  returns 0x00 (0000ms, 1061ms total)
T3A0C 002:676 JLINK_WriteReg(R4, 0x00000000)  returns 0x00 (0000ms, 1061ms total)
T3A0C 002:676 JLINK_WriteReg(R5, 0x00000000)  returns 0x00 (0000ms, 1061ms total)
T3A0C 002:676 JLINK_WriteReg(R6, 0x00000000)  returns 0x00 (0000ms, 1061ms total)
T3A0C 002:677 JLINK_WriteReg(R7, 0x00000000)  returns 0x00 (0000ms, 1061ms total)
T3A0C 002:677 JLINK_WriteReg(R8, 0x00000000)  returns 0x00 (0000ms, 1061ms total)
T3A0C 002:677 JLINK_WriteReg(R9, 0x20000194)  returns 0x00 (0000ms, 1061ms total)
T3A0C 002:677 JLINK_WriteReg(R10, 0x00000000)  returns 0x00 (0000ms, 1061ms total)
T3A0C 002:677 JLINK_WriteReg(R11, 0x00000000)  returns 0x00 (0000ms, 1061ms total)
T3A0C 002:677 JLINK_WriteReg(R12, 0x00000000)  returns 0x00 (0000ms, 1061ms total)
T3A0C 002:677 JLINK_WriteReg(R13 (SP), 0x20001000)  returns 0x00 (0000ms, 1061ms total)
T3A0C 002:677 JLINK_WriteReg(R14, 0x20000001)  returns 0x00 (0000ms, 1061ms total)
T3A0C 002:677 JLINK_WriteReg(R15 (PC), 0x2000005E)  returns 0x00 (0000ms, 1061ms total)
T3A0C 002:677 JLINK_WriteReg(XPSR, 0x01000000)  returns 0x00 (0000ms, 1061ms total)
T3A0C 002:677 JLINK_WriteReg(MSP, 0x20001000)  returns 0x00 (0000ms, 1061ms total)
T3A0C 002:677 JLINK_WriteReg(PSP, 0x20001000)  returns 0x00 (0000ms, 1061ms total)
T3A0C 002:677 JLINK_WriteReg(CFBP, 0x00000000)  returns 0x00 (0000ms, 1061ms total)
T3A0C 002:677 JLINK_SetBPEx(Addr = 0x20000000, Type = 0xFFFFFFF2) -- CPU_ReadMem(2 bytes @ 0x20000000)  returns 0x00000001 (0001ms, 1062ms total)
T3A0C 002:678 JLINK_Go() -- CPU_WriteMem(2 bytes @ 0x20000000) -- CPU_ReadMem(4 bytes @ 0xE0001000) -- CPU_WriteMem(4 bytes @ 0xE0002008) -- CPU_WriteMem(4 bytes @ 0xE000200C) -- CPU_WriteMem(4 bytes @ 0xE0002010) -- CPU_WriteMem(4 bytes @ 0xE0002014) -- CPU_WriteMem(4 bytes @ 0xE0002018) -- CPU_WriteMem(4 bytes @ 0xE000201C) -- CPU_WriteMem(4 bytes @ 0xE0001004) (0004ms, 1066ms total)
T3A0C 002:682 JLINK_IsHalted() -- CPU_ReadMem(2 bytes @ 0x20000000)  returns TRUE (0003ms, 1069ms total)
T3A0C 002:685 JLINK_ReadReg(R15 (PC))  returns 0x20000000 (0000ms, 1066ms total)
T3A0C 002:685 JLINK_ClrBPEx(BPHandle = 0x00000001)  returns 0x00 (0000ms, 1066ms total)
T3A0C 002:685 JLINK_ReadReg(R0)  returns 0x00000000 (0000ms, 1066ms total)
T3A0C 002:690 JLINK_WriteReg(R0, 0x08000000)  returns 0x00 (0000ms, 1066ms total)
T3A0C 002:690 JLINK_WriteReg(R1, 0x00004000)  returns 0x00 (0000ms, 1066ms total)
T3A0C 002:690 JLINK_WriteReg(R2, 0x000000FF)  returns 0x00 (0000ms, 1066ms total)
T3A0C 002:690 JLINK_WriteReg(R3, 0x00000000)  returns 0x00 (0000ms, 1066ms total)
T3A0C 002:690 JLINK_WriteReg(R4, 0x00000000)  returns 0x00 (0000ms, 1066ms total)
T3A0C 002:690 JLINK_WriteReg(R5, 0x00000000)  returns 0x00 (0000ms, 1066ms total)
T3A0C 002:690 JLINK_WriteReg(R6, 0x00000000)  returns 0x00 (0000ms, 1066ms total)
T3A0C 002:690 JLINK_WriteReg(R7, 0x00000000)  returns 0x00 (0000ms, 1066ms total)
T3A0C 002:690 JLINK_WriteReg(R8, 0x00000000)  returns 0x00 (0000ms, 1066ms total)
T3A0C 002:690 JLINK_WriteReg(R9, 0x20000194)  returns 0x00 (0000ms, 1066ms total)
T3A0C 002:690 JLINK_WriteReg(R10, 0x00000000)  returns 0x00 (0000ms, 1066ms total)
T3A0C 002:690 JLINK_WriteReg(R11, 0x00000000)  returns 0x00 (0000ms, 1066ms total)
T3A0C 002:690 JLINK_WriteReg(R12, 0x00000000)  returns 0x00 (0000ms, 1066ms total)
T3A0C 002:690 JLINK_WriteReg(R13 (SP), 0x20001000)  returns 0x00 (0000ms, 1066ms total)
T3A0C 002:690 JLINK_WriteReg(R14, 0x20000001)  returns 0x00 (0000ms, 1066ms total)
T3A0C 002:690 JLINK_WriteReg(R15 (PC), 0x20000020)  returns 0x00 (0001ms, 1067ms total)
T3A0C 002:691 JLINK_WriteReg(XPSR, 0x01000000)  returns 0x00 (0000ms, 1067ms total)
T3A0C 002:691 JLINK_WriteReg(MSP, 0x20001000)  returns 0x00 (0000ms, 1067ms total)
T3A0C 002:691 JLINK_WriteReg(PSP, 0x20001000)  returns 0x00 (0000ms, 1067ms total)
T3A0C 002:691 JLINK_WriteReg(CFBP, 0x00000000)  returns 0x00 (0000ms, 1067ms total)
T3A0C 002:691 JLINK_SetBPEx(Addr = 0x20000000, Type = 0xFFFFFFF2)  returns 0x00000002 (0000ms, 1067ms total)
T3A0C 002:691 JLINK_Go() -- CPU_ReadMem(4 bytes @ 0xE0001000) (0002ms, 1069ms total)
T3A0C 002:693 JLINK_IsHalted() -- CPU_ReadMem(2 bytes @ 0x20000000)  returns TRUE (0002ms, 1071ms total)
T3A0C 002:695 JLINK_ReadReg(R15 (PC))  returns 0x20000000 (0000ms, 1069ms total)
T3A0C 002:695 JLINK_ClrBPEx(BPHandle = 0x00000002)  returns 0x00 (0000ms, 1069ms total)
T3A0C 002:695 JLINK_ReadReg(R0)  returns 0x00000001 (0000ms, 1069ms total)
T3A0C 002:695 JLINK_WriteReg(R0, 0x08000000)  returns 0x00 (0001ms, 1070ms total)
T3A0C 002:696 JLINK_WriteReg(R1, 0x00004000)  returns 0x00 (0000ms, 1070ms total)
T3A0C 002:696 JLINK_WriteReg(R2, 0x000000FF)  returns 0x00 (0000ms, 1070ms total)
T3A0C 002:696 JLINK_WriteReg(R3, 0x00000000)  returns 0x00 (0000ms, 1070ms total)
T3A0C 002:696 JLINK_WriteReg(R4, 0x00000000)  returns 0x00 (0000ms, 1070ms total)
T3A0C 002:696 JLINK_WriteReg(R5, 0x00000000)  returns 0x00 (0000ms, 1070ms total)
T3A0C 002:696 JLINK_WriteReg(R6, 0x00000000)  returns 0x00 (0000ms, 1070ms total)
T3A0C 002:696 JLINK_WriteReg(R7, 0x00000000)  returns 0x00 (0000ms, 1070ms total)
T3A0C 002:696 JLINK_WriteReg(R8, 0x00000000)  returns 0x00 (0000ms, 1070ms total)
T3A0C 002:696 JLINK_WriteReg(R9, 0x20000194)  returns 0x00 (0000ms, 1070ms total)
T3A0C 002:696 JLINK_WriteReg(R10, 0x00000000)  returns 0x00 (0000ms, 1070ms total)
T3A0C 002:696 JLINK_WriteReg(R11, 0x00000000)  returns 0x00 (0000ms, 1070ms total)
T3A0C 002:696 JLINK_WriteReg(R12, 0x00000000)  returns 0x00 (0000ms, 1070ms total)
T3A0C 002:696 JLINK_WriteReg(R13 (SP), 0x20001000)  returns 0x00 (0000ms, 1070ms total)
T3A0C 002:696 JLINK_WriteReg(R14, 0x20000001)  returns 0x00 (0000ms, 1070ms total)
T3A0C 002:696 JLINK_WriteReg(R15 (PC), 0x200000D4)  returns 0x00 (0001ms, 1071ms total)
T3A0C 002:697 JLINK_WriteReg(XPSR, 0x01000000)  returns 0x00 (0000ms, 1071ms total)
T3A0C 002:697 JLINK_WriteReg(MSP, 0x20001000)  returns 0x00 (0000ms, 1071ms total)
T3A0C 002:697 JLINK_WriteReg(PSP, 0x20001000)  returns 0x00 (0000ms, 1071ms total)
T3A0C 002:697 JLINK_WriteReg(CFBP, 0x00000000)  returns 0x00 (0000ms, 1071ms total)
T3A0C 002:697 JLINK_SetBPEx(Addr = 0x20000000, Type = 0xFFFFFFF2)  returns 0x00000003 (0000ms, 1071ms total)
T3A0C 002:697 JLINK_Go() -- CPU_ReadMem(4 bytes @ 0xE0001000) (0002ms, 1073ms total)
T3A0C 002:699 JLINK_IsHalted()  returns FALSE (0000ms, 1073ms total)
T3A0C 003:246 JLINK_IsHalted() -- CPU_ReadMem(2 bytes @ 0x20000000)  returns TRUE (0002ms, 1075ms total)
T3A0C 003:248 JLINK_ReadReg(R15 (PC))  returns 0x20000000 (0000ms, 1073ms total)
T3A0C 003:248 JLINK_ClrBPEx(BPHandle = 0x00000003)  returns 0x00 (0000ms, 1073ms total)
T3A0C 003:248 JLINK_ReadReg(R0)  returns 0x00000000 (0000ms, 1073ms total)
T3A0C 003:255 JLINK_WriteReg(R0, 0x08004000)  returns 0x00 (0000ms, 1073ms total)
T3A0C 003:255 JLINK_WriteReg(R1, 0x00004000)  returns 0x00 (0000ms, 1073ms total)
T3A0C 003:255 JLINK_WriteReg(R2, 0x000000FF)  returns 0x00 (0000ms, 1073ms total)
T3A0C 003:255 JLINK_WriteReg(R3, 0x00000000)  returns 0x00 (0000ms, 1073ms total)
T3A0C 003:255 JLINK_WriteReg(R4, 0x00000000)  returns 0x00 (0000ms, 1073ms total)
T3A0C 003:255 JLINK_WriteReg(R5, 0x00000000)  returns 0x00 (0000ms, 1073ms total)
T3A0C 003:255 JLINK_WriteReg(R6, 0x00000000)  returns 0x00 (0000ms, 1073ms total)
T3A0C 003:255 JLINK_WriteReg(R7, 0x00000000)  returns 0x00 (0000ms, 1073ms total)
T3A0C 003:255 JLINK_WriteReg(R8, 0x00000000)  returns 0x00 (0000ms, 1073ms total)
T3A0C 003:255 JLINK_WriteReg(R9, 0x20000194)  returns 0x00 (0000ms, 1073ms total)
T3A0C 003:256 JLINK_WriteReg(R10, 0x00000000)  returns 0x00 (0000ms, 1073ms total)
T3A0C 003:256 JLINK_WriteReg(R11, 0x00000000)  returns 0x00 (0000ms, 1073ms total)
T3A0C 003:256 JLINK_WriteReg(R12, 0x00000000)  returns 0x00 (0000ms, 1073ms total)
T3A0C 003:256 JLINK_WriteReg(R13 (SP), 0x20001000)  returns 0x00 (0000ms, 1073ms total)
T3A0C 003:256 JLINK_WriteReg(R14, 0x20000001)  returns 0x00 (0000ms, 1073ms total)
T3A0C 003:256 JLINK_WriteReg(R15 (PC), 0x20000020)  returns 0x00 (0000ms, 1073ms total)
T3A0C 003:256 JLINK_WriteReg(XPSR, 0x01000000)  returns 0x00 (0000ms, 1073ms total)
T3A0C 003:256 JLINK_WriteReg(MSP, 0x20001000)  returns 0x00 (0000ms, 1073ms total)
T3A0C 003:256 JLINK_WriteReg(PSP, 0x20001000)  returns 0x00 (0000ms, 1073ms total)
T3A0C 003:256 JLINK_WriteReg(CFBP, 0x00000000)  returns 0x00 (0000ms, 1073ms total)
T3A0C 003:256 JLINK_SetBPEx(Addr = 0x20000000, Type = 0xFFFFFFF2)  returns 0x00000004 (0000ms, 1073ms total)
T3A0C 003:256 JLINK_Go() -- CPU_ReadMem(4 bytes @ 0xE0001000) (0002ms, 1075ms total)
T3A0C 003:258 JLINK_IsHalted() -- CPU_ReadMem(2 bytes @ 0x20000000)  returns TRUE (0003ms, 1078ms total)
T3A0C 003:261 JLINK_ReadReg(R15 (PC))  returns 0x20000000 (0000ms, 1075ms total)
T3A0C 003:261 JLINK_ClrBPEx(BPHandle = 0x00000004)  returns 0x00 (0000ms, 1075ms total)
T3A0C 003:261 JLINK_ReadReg(R0)  returns 0x00000001 (0000ms, 1075ms total)
T3A0C 003:261 JLINK_WriteReg(R0, 0x08004000)  returns 0x00 (0000ms, 1075ms total)
T3A0C 003:261 JLINK_WriteReg(R1, 0x00004000)  returns 0x00 (0000ms, 1075ms total)
T3A0C 003:261 JLINK_WriteReg(R2, 0x000000FF)  returns 0x00 (0000ms, 1075ms total)
T3A0C 003:261 JLINK_WriteReg(R3, 0x00000000)  returns 0x00 (0000ms, 1075ms total)
T3A0C 003:261 JLINK_WriteReg(R4, 0x00000000)  returns 0x00 (0000ms, 1075ms total)
T3A0C 003:261 JLINK_WriteReg(R5, 0x00000000)  returns 0x00 (0000ms, 1075ms total)
T3A0C 003:261 JLINK_WriteReg(R6, 0x00000000)  returns 0x00 (0000ms, 1075ms total)
T3A0C 003:261 JLINK_WriteReg(R7, 0x00000000)  returns 0x00 (0000ms, 1075ms total)
T3A0C 003:261 JLINK_WriteReg(R8, 0x00000000)  returns 0x00 (0000ms, 1075ms total)
T3A0C 003:261 JLINK_WriteReg(R9, 0x20000194)  returns 0x00 (0000ms, 1075ms total)
T3A0C 003:261 JLINK_WriteReg(R10, 0x00000000)  returns 0x00 (0000ms, 1075ms total)
T3A0C 003:261 JLINK_WriteReg(R11, 0x00000000)  returns 0x00 (0000ms, 1075ms total)
T3A0C 003:261 JLINK_WriteReg(R12, 0x00000000)  returns 0x00 (0000ms, 1075ms total)
T3A0C 003:261 JLINK_WriteReg(R13 (SP), 0x20001000)  returns 0x00 (0000ms, 1075ms total)
T3A0C 003:261 JLINK_WriteReg(R14, 0x20000001)  returns 0x00 (0001ms, 1076ms total)
T3A0C 003:262 JLINK_WriteReg(R15 (PC), 0x200000D4)  returns 0x00 (0000ms, 1076ms total)
T3A0C 003:262 JLINK_WriteReg(XPSR, 0x01000000)  returns 0x00 (0000ms, 1076ms total)
T3A0C 003:262 JLINK_WriteReg(MSP, 0x20001000)  returns 0x00 (0000ms, 1076ms total)
T3A0C 003:262 JLINK_WriteReg(PSP, 0x20001000)  returns 0x00 (0000ms, 1076ms total)
T3A0C 003:262 JLINK_WriteReg(CFBP, 0x00000000)  returns 0x00 (0001ms, 1077ms total)
T3A0C 003:263 JLINK_SetBPEx(Addr = 0x20000000, Type = 0xFFFFFFF2)  returns 0x00000005 (0000ms, 1077ms total)
T3A0C 003:263 JLINK_Go() -- CPU_ReadMem(4 bytes @ 0xE0001000) (0001ms, 1078ms total)
T3A0C 003:264 JLINK_IsHalted()  returns FALSE (0000ms, 1078ms total)
T3A0C 003:274 JLINK_IsHalted()  returns FALSE (0000ms, 1078ms total)
T3A0C 003:276 JLINK_IsHalted()  returns FALSE (0000ms, 1078ms total)
T3A0C 003:278 JLINK_IsHalted()  returns FALSE (0000ms, 1078ms total)
T3A0C 003:280 JLINK_IsHalted()  returns FALSE (0000ms, 1078ms total)
T3A0C 003:282 JLINK_IsHalted()  returns FALSE (0000ms, 1078ms total)
T3A0C 003:284 JLINK_IsHalted()  returns FALSE (0000ms, 1078ms total)
T3A0C 003:286 JLINK_IsHalted()  returns FALSE (0000ms, 1078ms total)
T3A0C 003:288 JLINK_IsHalted()  returns FALSE (0000ms, 1078ms total)
T3A0C 003:290 JLINK_IsHalted()  returns FALSE (0000ms, 1078ms total)
T3A0C 003:292 JLINK_IsHalted()  returns FALSE (0000ms, 1078ms total)
T3A0C 003:294 JLINK_IsHalted()  returns FALSE (0000ms, 1078ms total)
T3A0C 003:296 JLINK_IsHalted()  returns FALSE (0000ms, 1078ms total)
T3A0C 003:298 JLINK_IsHalted()  returns FALSE (0000ms, 1078ms total)
T3A0C 003:300 JLINK_IsHalted()  returns FALSE (0000ms, 1078ms total)
T3A0C 003:302 JLINK_IsHalted()  returns FALSE (0000ms, 1078ms total)
T3A0C 003:304 JLINK_IsHalted()  returns FALSE (0000ms, 1078ms total)
T3A0C 003:306 JLINK_IsHalted()  returns FALSE (0000ms, 1078ms total)
T3A0C 003:308 JLINK_IsHalted()  returns FALSE (0000ms, 1078ms total)
T3A0C 003:310 JLINK_IsHalted()  returns FALSE (0000ms, 1078ms total)
T3A0C 003:312 JLINK_IsHalted()  returns FALSE (0000ms, 1078ms total)
T3A0C 003:314 JLINK_IsHalted()  returns FALSE (0000ms, 1078ms total)
T3A0C 003:316 JLINK_IsHalted()  returns FALSE (0000ms, 1078ms total)
T3A0C 003:318 JLINK_IsHalted()  returns FALSE (0000ms, 1078ms total)
T3A0C 003:320 JLINK_IsHalted()  returns FALSE (0000ms, 1078ms total)
T3A0C 003:322 JLINK_IsHalted()  returns FALSE (0000ms, 1078ms total)
T3A0C 003:324 JLINK_IsHalted()  returns FALSE (0000ms, 1078ms total)
T3A0C 003:326 JLINK_IsHalted()  returns FALSE (0000ms, 1078ms total)
T3A0C 003:328 JLINK_IsHalted()  returns FALSE (0000ms, 1078ms total)
T3A0C 003:330 JLINK_IsHalted()  returns FALSE (0000ms, 1078ms total)
T3A0C 003:332 JLINK_IsHalted()  returns FALSE (0000ms, 1078ms total)
T3A0C 003:334 JLINK_IsHalted()  returns FALSE (0000ms, 1078ms total)
T3A0C 003:336 JLINK_IsHalted()  returns FALSE (0000ms, 1078ms total)
T3A0C 003:338 JLINK_IsHalted()  returns FALSE (0000ms, 1078ms total)
T3A0C 003:340 JLINK_IsHalted()  returns FALSE (0000ms, 1078ms total)
T3A0C 003:342 JLINK_IsHalted()  returns FALSE (0000ms, 1078ms total)
T3A0C 003:344 JLINK_IsHalted()  returns FALSE (0000ms, 1078ms total)
T3A0C 003:346 JLINK_IsHalted()  returns FALSE (0000ms, 1078ms total)
T3A0C 003:348 JLINK_IsHalted()  returns FALSE (0000ms, 1078ms total)
T3A0C 003:350 JLINK_IsHalted()  returns FALSE (0000ms, 1078ms total)
T3A0C 003:352 JLINK_IsHalted()  returns FALSE (0000ms, 1078ms total)
T3A0C 003:354 JLINK_IsHalted()  returns FALSE (0000ms, 1078ms total)
T3A0C 003:356 JLINK_IsHalted()  returns FALSE (0000ms, 1078ms total)
T3A0C 003:358 JLINK_IsHalted()  returns FALSE (0000ms, 1078ms total)
T3A0C 003:360 JLINK_IsHalted()  returns FALSE (0000ms, 1078ms total)
T3A0C 003:362 JLINK_IsHalted()  returns FALSE (0000ms, 1078ms total)
T3A0C 003:364 JLINK_IsHalted()  returns FALSE (0000ms, 1078ms total)
T3A0C 003:366 JLINK_IsHalted()  returns FALSE (0000ms, 1078ms total)
T3A0C 003:368 JLINK_IsHalted()  returns FALSE (0000ms, 1078ms total)
T3A0C 003:370 JLINK_IsHalted()  returns FALSE (0000ms, 1078ms total)
T3A0C 003:395 JLINK_IsHalted()  returns FALSE (0000ms, 1078ms total)
T3A0C 003:397 JLINK_IsHalted()  returns FALSE (0000ms, 1078ms total)
T3A0C 003:400 JLINK_IsHalted()  returns FALSE (0000ms, 1078ms total)
T3A0C 003:402 JLINK_IsHalted()  returns FALSE (0000ms, 1078ms total)
T3A0C 003:404 JLINK_IsHalted()  returns FALSE (0000ms, 1078ms total)
T3A0C 003:406 JLINK_IsHalted()  returns FALSE (0000ms, 1078ms total)
T3A0C 003:408 JLINK_IsHalted()  returns FALSE (0000ms, 1078ms total)
T3A0C 003:410 JLINK_IsHalted()  returns FALSE (0000ms, 1078ms total)
T3A0C 003:412 JLINK_IsHalted()  returns FALSE (0000ms, 1078ms total)
T3A0C 003:414 JLINK_IsHalted()  returns FALSE (0000ms, 1078ms total)
T3A0C 003:416 JLINK_IsHalted()  returns FALSE (0000ms, 1078ms total)
T3A0C 003:418 JLINK_IsHalted()  returns FALSE (0000ms, 1078ms total)
T3A0C 003:420 JLINK_IsHalted()  returns FALSE (0000ms, 1078ms total)
T3A0C 003:422 JLINK_IsHalted()  returns FALSE (0000ms, 1078ms total)
T3A0C 003:424 JLINK_IsHalted()  returns FALSE (0000ms, 1078ms total)
T3A0C 003:426 JLINK_IsHalted()  returns FALSE (0000ms, 1078ms total)
T3A0C 003:428 JLINK_IsHalted()  returns FALSE (0000ms, 1078ms total)
T3A0C 003:430 JLINK_IsHalted()  returns FALSE (0000ms, 1078ms total)
T3A0C 003:432 JLINK_IsHalted()  returns FALSE (0000ms, 1078ms total)
T3A0C 003:434 JLINK_IsHalted()  returns FALSE (0000ms, 1078ms total)
T3A0C 003:436 JLINK_IsHalted()  returns FALSE (0000ms, 1078ms total)
T3A0C 003:438 JLINK_IsHalted()  returns FALSE (0000ms, 1078ms total)
T3A0C 003:440 JLINK_IsHalted()  returns FALSE (0000ms, 1078ms total)
T3A0C 003:442 JLINK_IsHalted()  returns FALSE (0000ms, 1078ms total)
T3A0C 003:444 JLINK_IsHalted()  returns FALSE (0000ms, 1078ms total)
T3A0C 003:446 JLINK_IsHalted()  returns FALSE (0000ms, 1078ms total)
T3A0C 003:448 JLINK_IsHalted()  returns FALSE (0000ms, 1078ms total)
T3A0C 003:450 JLINK_IsHalted()  returns FALSE (0000ms, 1078ms total)
T3A0C 003:459 JLINK_IsHalted()  returns FALSE (0000ms, 1078ms total)
T3A0C 003:461 JLINK_IsHalted()  returns FALSE (0000ms, 1078ms total)
T3A0C 003:463 JLINK_IsHalted()  returns FALSE (0000ms, 1078ms total)
T3A0C 003:465 JLINK_IsHalted()  returns FALSE (0000ms, 1078ms total)
T3A0C 003:467 JLINK_IsHalted()  returns FALSE (0000ms, 1078ms total)
T3A0C 003:469 JLINK_IsHalted()  returns FALSE (0000ms, 1078ms total)
T3A0C 003:471 JLINK_IsHalted()  returns FALSE (0000ms, 1078ms total)
T3A0C 003:473 JLINK_IsHalted()  returns FALSE (0000ms, 1078ms total)
T3A0C 003:475 JLINK_IsHalted()  returns FALSE (0000ms, 1078ms total)
T3A0C 003:477 JLINK_IsHalted()  returns FALSE (0000ms, 1078ms total)
T3A0C 003:479 JLINK_IsHalted()  returns FALSE (0000ms, 1078ms total)
T3A0C 003:491 JLINK_IsHalted()  returns FALSE (0000ms, 1078ms total)
T3A0C 003:493 JLINK_IsHalted()  returns FALSE (0000ms, 1078ms total)
T3A0C 003:495 JLINK_IsHalted()  returns FALSE (0001ms, 1079ms total)
T3A0C 003:497 JLINK_IsHalted()  returns FALSE (0000ms, 1078ms total)
T3A0C 003:499 JLINK_IsHalted()  returns FALSE (0000ms, 1078ms total)
T3A0C 003:501 JLINK_IsHalted()  returns FALSE (0000ms, 1078ms total)
T3A0C 003:503 JLINK_IsHalted()  returns FALSE (0000ms, 1078ms total)
T3A0C 003:505 JLINK_IsHalted()  returns FALSE (0000ms, 1078ms total)
T3A0C 003:507 JLINK_IsHalted()  returns FALSE (0000ms, 1078ms total)
T3A0C 003:509 JLINK_IsHalted()  returns FALSE (0001ms, 1079ms total)
T3A0C 003:511 JLINK_IsHalted()  returns FALSE (0001ms, 1079ms total)
T3A0C 003:514 JLINK_IsHalted()  returns FALSE (0000ms, 1078ms total)
T3A0C 003:516 JLINK_IsHalted()  returns FALSE (0000ms, 1078ms total)
T3A0C 003:518 JLINK_IsHalted()  returns FALSE (0000ms, 1078ms total)
T3A0C 003:520 JLINK_IsHalted()  returns FALSE (0000ms, 1078ms total)
T3A0C 003:522 JLINK_IsHalted()  returns FALSE (0000ms, 1078ms total)
T3A0C 003:524 JLINK_IsHalted()  returns FALSE (0000ms, 1078ms total)
T3A0C 003:526 JLINK_IsHalted()  returns FALSE (0000ms, 1078ms total)
T3A0C 003:529 JLINK_IsHalted()  returns FALSE (0000ms, 1078ms total)
T3A0C 003:531 JLINK_IsHalted()  returns FALSE (0000ms, 1078ms total)
T3A0C 003:533 JLINK_IsHalted()  returns FALSE (0000ms, 1078ms total)
T3A0C 003:535 JLINK_IsHalted()  returns FALSE (0000ms, 1078ms total)
T3A0C 003:537 JLINK_IsHalted()  returns FALSE (0000ms, 1078ms total)
T3A0C 003:539 JLINK_IsHalted()  returns FALSE (0000ms, 1078ms total)
T3A0C 003:541 JLINK_IsHalted()  returns FALSE (0000ms, 1078ms total)
T3A0C 003:543 JLINK_IsHalted()  returns FALSE (0000ms, 1078ms total)
T3A0C 003:545 JLINK_IsHalted()  returns FALSE (0000ms, 1078ms total)
T3A0C 003:547 JLINK_IsHalted()  returns FALSE (0000ms, 1078ms total)
T3A0C 003:549 JLINK_IsHalted()  returns FALSE (0000ms, 1078ms total)
T3A0C 003:551 JLINK_IsHalted()  returns FALSE (0000ms, 1078ms total)
T3A0C 003:553 JLINK_IsHalted()  returns FALSE (0000ms, 1078ms total)
T3A0C 003:555 JLINK_IsHalted()  returns FALSE (0000ms, 1078ms total)
T3A0C 003:557 JLINK_IsHalted()  returns FALSE (0000ms, 1078ms total)
T3A0C 003:559 JLINK_IsHalted()  returns FALSE (0000ms, 1078ms total)
T3A0C 003:561 JLINK_IsHalted()  returns FALSE (0001ms, 1079ms total)
T3A0C 003:564 JLINK_IsHalted()  returns FALSE (0000ms, 1078ms total)
T3A0C 003:566 JLINK_IsHalted()  returns FALSE (0000ms, 1078ms total)
T3A0C 003:568 JLINK_IsHalted()  returns FALSE (0000ms, 1078ms total)
T3A0C 003:570 JLINK_IsHalted()  returns FALSE (0000ms, 1078ms total)
T3A0C 003:572 JLINK_IsHalted()  returns FALSE (0000ms, 1078ms total)
T3A0C 003:574 JLINK_IsHalted()  returns FALSE (0000ms, 1078ms total)
T3A0C 003:576 JLINK_IsHalted()  returns FALSE (0000ms, 1078ms total)
T3A0C 003:578 JLINK_IsHalted()  returns FALSE (0000ms, 1078ms total)
T3A0C 003:580 JLINK_IsHalted()  returns FALSE (0000ms, 1078ms total)
T3A0C 003:586 JLINK_IsHalted()  returns FALSE (0000ms, 1078ms total)
T3A0C 003:588 JLINK_IsHalted()  returns FALSE (0000ms, 1078ms total)
T3A0C 003:590 JLINK_IsHalted()  returns FALSE (0000ms, 1078ms total)
T3A0C 003:602 JLINK_IsHalted()  returns FALSE (0000ms, 1078ms total)
T3A0C 003:604 JLINK_IsHalted()  returns FALSE (0000ms, 1078ms total)
T3A0C 003:606 JLINK_IsHalted()  returns FALSE (0000ms, 1078ms total)
T3A0C 003:608 JLINK_IsHalted()  returns FALSE (0000ms, 1078ms total)
T3A0C 003:610 JLINK_IsHalted()  returns FALSE (0000ms, 1078ms total)
T3A0C 003:611 JLINK_IsHalted()  returns FALSE (0000ms, 1078ms total)
T3A0C 003:613 JLINK_IsHalted()  returns FALSE (0000ms, 1078ms total)
T3A0C 003:615 JLINK_IsHalted() -- CPU_ReadMem(2 bytes @ 0x20000000)  returns TRUE (0002ms, 1080ms total)
T3A0C 003:617 JLINK_ReadReg(R15 (PC))  returns 0x20000000 (0000ms, 1078ms total)
T3A0C 003:617 JLINK_ClrBPEx(BPHandle = 0x00000005)  returns 0x00 (0000ms, 1078ms total)
T3A0C 003:617 JLINK_ReadReg(R0)  returns 0x00000000 (0000ms, 1078ms total)
T3A0C 003:620 JLINK_WriteReg(R0, 0x00000001)  returns 0x00 (0000ms, 1078ms total)
T3A0C 003:620 JLINK_WriteReg(R1, 0x00004000)  returns 0x00 (0000ms, 1078ms total)
T3A0C 003:620 JLINK_WriteReg(R2, 0x000000FF)  returns 0x00 (0000ms, 1078ms total)
T3A0C 003:620 JLINK_WriteReg(R3, 0x00000000)  returns 0x00 (0000ms, 1078ms total)
T3A0C 003:620 JLINK_WriteReg(R4, 0x00000000)  returns 0x00 (0000ms, 1078ms total)
T3A0C 003:620 JLINK_WriteReg(R5, 0x00000000)  returns 0x00 (0000ms, 1078ms total)
T3A0C 003:620 JLINK_WriteReg(R6, 0x00000000)  returns 0x00 (0000ms, 1078ms total)
T3A0C 003:620 JLINK_WriteReg(R7, 0x00000000)  returns 0x00 (0000ms, 1078ms total)
T3A0C 003:620 JLINK_WriteReg(R8, 0x00000000)  returns 0x00 (0000ms, 1078ms total)
T3A0C 003:620 JLINK_WriteReg(R9, 0x20000194)  returns 0x00 (0000ms, 1078ms total)
T3A0C 003:620 JLINK_WriteReg(R10, 0x00000000)  returns 0x00 (0000ms, 1078ms total)
T3A0C 003:620 JLINK_WriteReg(R11, 0x00000000)  returns 0x00 (0000ms, 1078ms total)
T3A0C 003:620 JLINK_WriteReg(R12, 0x00000000)  returns 0x00 (0000ms, 1078ms total)
T3A0C 003:620 JLINK_WriteReg(R13 (SP), 0x20001000)  returns 0x00 (0000ms, 1078ms total)
T3A0C 003:620 JLINK_WriteReg(R14, 0x20000001)  returns 0x00 (0000ms, 1078ms total)
T3A0C 003:620 JLINK_WriteReg(R15 (PC), 0x2000008C)  returns 0x00 (0000ms, 1078ms total)
T3A0C 003:620 JLINK_WriteReg(XPSR, 0x01000000)  returns 0x00 (0001ms, 1079ms total)
T3A0C 003:621 JLINK_WriteReg(MSP, 0x20001000)  returns 0x00 (0000ms, 1079ms total)
T3A0C 003:621 JLINK_WriteReg(PSP, 0x20001000)  returns 0x00 (0000ms, 1079ms total)
T3A0C 003:621 JLINK_WriteReg(CFBP, 0x00000000)  returns 0x00 (0000ms, 1079ms total)
T3A0C 003:621 JLINK_SetBPEx(Addr = 0x20000000, Type = 0xFFFFFFF2)  returns 0x00000006 (0000ms, 1079ms total)
T3A0C 003:621 JLINK_Go() -- CPU_ReadMem(4 bytes @ 0xE0001000) (0002ms, 1081ms total)
T3A0C 003:623 JLINK_IsHalted() -- CPU_ReadMem(2 bytes @ 0x20000000)  returns TRUE (0003ms, 1084ms total)
T3A0C 003:626 JLINK_ReadReg(R15 (PC))  returns 0x20000000 (0000ms, 1081ms total)
T3A0C 003:626 JLINK_ClrBPEx(BPHandle = 0x00000006)  returns 0x00 (0000ms, 1081ms total)
T3A0C 003:626 JLINK_ReadReg(R0)  returns 0x00000000 (0000ms, 1081ms total)
T3A0C 003:761 JLINK_WriteMem(0x20000000, 0x0198 Bytes, ...) - Data: 00 BE 0A E0 0D 78 2D 06 68 40 08 24 40 00 00 D3 ... -- CPU_WriteMem(408 bytes @ 0x20000000)  returns 0x198 (0002ms, 1083ms total)
T3A0C 003:764 JLINK_WriteReg(R0, 0x08000000)  returns 0x00 (0000ms, 1083ms total)
T3A0C 003:764 JLINK_WriteReg(R1, 0x00B71B00)  returns 0x00 (0000ms, 1083ms total)
T3A0C 003:764 JLINK_WriteReg(R2, 0x00000002)  returns 0x00 (0000ms, 1083ms total)
T3A0C 003:764 JLINK_WriteReg(R3, 0x00000000)  returns 0x00 (0000ms, 1083ms total)
T3A0C 003:764 JLINK_WriteReg(R4, 0x00000000)  returns 0x00 (0000ms, 1083ms total)
T3A0C 003:764 JLINK_WriteReg(R5, 0x00000000)  returns 0x00 (0000ms, 1083ms total)
T3A0C 003:764 JLINK_WriteReg(R6, 0x00000000)  returns 0x00 (0000ms, 1083ms total)
T3A0C 003:764 JLINK_WriteReg(R7, 0x00000000)  returns 0x00 (0000ms, 1083ms total)
T3A0C 003:764 JLINK_WriteReg(R8, 0x00000000)  returns 0x00 (0000ms, 1083ms total)
T3A0C 003:764 JLINK_WriteReg(R9, 0x20000194)  returns 0x00 (0000ms, 1083ms total)
T3A0C 003:764 JLINK_WriteReg(R10, 0x00000000)  returns 0x00 (0000ms, 1083ms total)
T3A0C 003:764 JLINK_WriteReg(R11, 0x00000000)  returns 0x00 (0000ms, 1083ms total)
T3A0C 003:764 JLINK_WriteReg(R12, 0x00000000)  returns 0x00 (0000ms, 1083ms total)
T3A0C 003:764 JLINK_WriteReg(R13 (SP), 0x20001000)  returns 0x00 (0000ms, 1083ms total)
T3A0C 003:764 JLINK_WriteReg(R14, 0x20000001)  returns 0x00 (0000ms, 1083ms total)
T3A0C 003:764 JLINK_WriteReg(R15 (PC), 0x2000005E)  returns 0x00 (0000ms, 1083ms total)
T3A0C 003:764 JLINK_WriteReg(XPSR, 0x01000000)  returns 0x00 (0000ms, 1083ms total)
T3A0C 003:764 JLINK_WriteReg(MSP, 0x20001000)  returns 0x00 (0000ms, 1083ms total)
T3A0C 003:764 JLINK_WriteReg(PSP, 0x20001000)  returns 0x00 (0000ms, 1083ms total)
T3A0C 003:764 JLINK_WriteReg(CFBP, 0x00000000)  returns 0x00 (0001ms, 1084ms total)
T3A0C 003:765 JLINK_SetBPEx(Addr = 0x20000000, Type = 0xFFFFFFF2) -- CPU_ReadMem(2 bytes @ 0x20000000)  returns 0x00000007 (0000ms, 1084ms total)
T3A0C 003:765 JLINK_Go() -- CPU_WriteMem(2 bytes @ 0x20000000) -- CPU_ReadMem(4 bytes @ 0xE0001000) (0002ms, 1086ms total)
T3A0C 003:767 JLINK_IsHalted() -- CPU_ReadMem(2 bytes @ 0x20000000)  returns TRUE (0003ms, 1089ms total)
T3A0C 003:770 JLINK_ReadReg(R15 (PC))  returns 0x20000000 (0000ms, 1086ms total)
T3A0C 003:770 JLINK_ClrBPEx(BPHandle = 0x00000007)  returns 0x00 (0000ms, 1086ms total)
T3A0C 003:770 JLINK_ReadReg(R0)  returns 0x00000000 (0000ms, 1086ms total)
T3A0C 003:773 JLINK_WriteMem(0x20000198, 0x0400 Bytes, ...) - Data: 00 0F 00 20 C1 01 00 08 91 42 00 08 57 39 00 08 ... -- CPU_WriteMem(1024 bytes @ 0x20000198)  returns 0x400 (0004ms, 1090ms total)
T3A0C 003:777 JLINK_WriteReg(R0, 0x08000000)  returns 0x00 (0000ms, 1090ms total)
T3A0C 003:777 JLINK_WriteReg(R1, 0x00000400)  returns 0x00 (0000ms, 1090ms total)
T3A0C 003:777 JLINK_WriteReg(R2, 0x20000198)  returns 0x00 (0000ms, 1090ms total)
T3A0C 003:777 JLINK_WriteReg(R3, 0x00000000)  returns 0x00 (0000ms, 1090ms total)
T3A0C 003:777 JLINK_WriteReg(R4, 0x00000000)  returns 0x00 (0000ms, 1090ms total)
T3A0C 003:777 JLINK_WriteReg(R5, 0x00000000)  returns 0x00 (0000ms, 1090ms total)
T3A0C 003:777 JLINK_WriteReg(R6, 0x00000000)  returns 0x00 (0000ms, 1090ms total)
T3A0C 003:777 JLINK_WriteReg(R7, 0x00000000)  returns 0x00 (0000ms, 1090ms total)
T3A0C 003:777 JLINK_WriteReg(R8, 0x00000000)  returns 0x00 (0000ms, 1090ms total)
T3A0C 003:777 JLINK_WriteReg(R9, 0x20000194)  returns 0x00 (0001ms, 1091ms total)
T3A0C 003:778 JLINK_WriteReg(R10, 0x00000000)  returns 0x00 (0000ms, 1091ms total)
T3A0C 003:778 JLINK_WriteReg(R11, 0x00000000)  returns 0x00 (0000ms, 1091ms total)
T3A0C 003:778 JLINK_WriteReg(R12, 0x00000000)  returns 0x00 (0000ms, 1091ms total)
T3A0C 003:778 JLINK_WriteReg(R13 (SP), 0x20001000)  returns 0x00 (0000ms, 1091ms total)
T3A0C 003:778 JLINK_WriteReg(R14, 0x20000001)  returns 0x00 (0000ms, 1091ms total)
T3A0C 003:778 JLINK_WriteReg(R15 (PC), 0x20000120)  returns 0x00 (0000ms, 1091ms total)
T3A0C 003:778 JLINK_WriteReg(XPSR, 0x01000000)  returns 0x00 (0000ms, 1091ms total)
T3A0C 003:778 JLINK_WriteReg(MSP, 0x20001000)  returns 0x00 (0000ms, 1091ms total)
T3A0C 003:778 JLINK_WriteReg(PSP, 0x20001000)  returns 0x00 (0000ms, 1091ms total)
T3A0C 003:778 JLINK_WriteReg(CFBP, 0x00000000)  returns 0x00 (0000ms, 1091ms total)
T3A0C 003:778 JLINK_SetBPEx(Addr = 0x20000000, Type = 0xFFFFFFF2)  returns 0x00000008 (0000ms, 1091ms total)
T3A0C 003:778 JLINK_Go() -- CPU_ReadMem(4 bytes @ 0xE0001000) (0002ms, 1093ms total)
T3A0C 003:780 JLINK_IsHalted()  returns FALSE (0001ms, 1094ms total)
T3A0C 003:824 JLINK_IsHalted() -- CPU_ReadMem(2 bytes @ 0x20000000)  returns TRUE (0003ms, 1096ms total)
T3A0C 003:827 JLINK_ReadReg(R15 (PC))  returns 0x20000000 (0000ms, 1093ms total)
T3A0C 003:827 JLINK_ClrBPEx(BPHandle = 0x00000008)  returns 0x00 (0000ms, 1093ms total)
T3A0C 003:827 JLINK_ReadReg(R0)  returns 0x00000000 (0000ms, 1093ms total)
T3A0C 003:832 JLINK_WriteMem(0x20000198, 0x0400 Bytes, ...) - Data: 81 EA 03 00 C0 0F 0C 46 00 90 21 F0 00 41 23 F0 ... -- CPU_WriteMem(1024 bytes @ 0x20000198)  returns 0x400 (0004ms, 1097ms total)
T3A0C 003:836 JLINK_WriteReg(R0, 0x08000400)  returns 0x00 (0000ms, 1097ms total)
T3A0C 003:836 JLINK_WriteReg(R1, 0x00000400)  returns 0x00 (0000ms, 1097ms total)
T3A0C 003:836 JLINK_WriteReg(R2, 0x20000198)  returns 0x00 (0000ms, 1097ms total)
T3A0C 003:836 JLINK_WriteReg(R3, 0x00000000)  returns 0x00 (0000ms, 1097ms total)
T3A0C 003:836 JLINK_WriteReg(R4, 0x00000000)  returns 0x00 (0000ms, 1097ms total)
T3A0C 003:836 JLINK_WriteReg(R5, 0x00000000)  returns 0x00 (0000ms, 1097ms total)
T3A0C 003:836 JLINK_WriteReg(R6, 0x00000000)  returns 0x00 (0000ms, 1097ms total)
T3A0C 003:836 JLINK_WriteReg(R7, 0x00000000)  returns 0x00 (0000ms, 1097ms total)
T3A0C 003:836 JLINK_WriteReg(R8, 0x00000000)  returns 0x00 (0000ms, 1097ms total)
T3A0C 003:836 JLINK_WriteReg(R9, 0x20000194)  returns 0x00 (0000ms, 1097ms total)
T3A0C 003:836 JLINK_WriteReg(R10, 0x00000000)  returns 0x00 (0000ms, 1097ms total)
T3A0C 003:836 JLINK_WriteReg(R11, 0x00000000)  returns 0x00 (0000ms, 1097ms total)
T3A0C 003:836 JLINK_WriteReg(R12, 0x00000000)  returns 0x00 (0000ms, 1097ms total)
T3A0C 003:836 JLINK_WriteReg(R13 (SP), 0x20001000)  returns 0x00 (0000ms, 1097ms total)
T3A0C 003:836 JLINK_WriteReg(R14, 0x20000001)  returns 0x00 (0001ms, 1098ms total)
T3A0C 003:837 JLINK_WriteReg(R15 (PC), 0x20000120)  returns 0x00 (0000ms, 1098ms total)
T3A0C 003:837 JLINK_WriteReg(XPSR, 0x01000000)  returns 0x00 (0000ms, 1098ms total)
T3A0C 003:837 JLINK_WriteReg(MSP, 0x20001000)  returns 0x00 (0000ms, 1098ms total)
T3A0C 003:837 JLINK_WriteReg(PSP, 0x20001000)  returns 0x00 (0000ms, 1098ms total)
T3A0C 003:837 JLINK_WriteReg(CFBP, 0x00000000)  returns 0x00 (0000ms, 1098ms total)
T3A0C 003:837 JLINK_SetBPEx(Addr = 0x20000000, Type = 0xFFFFFFF2)  returns 0x00000009 (0000ms, 1098ms total)
T3A0C 003:837 JLINK_Go() -- CPU_ReadMem(4 bytes @ 0xE0001000) (0002ms, 1100ms total)
T3A0C 003:839 JLINK_IsHalted()  returns FALSE (0001ms, 1101ms total)
T3A0C 003:860 JLINK_IsHalted() -- CPU_ReadMem(2 bytes @ 0x20000000)  returns TRUE (0003ms, 1103ms total)
T3A0C 003:863 JLINK_ReadReg(R15 (PC))  returns 0x20000000 (0000ms, 1100ms total)
T3A0C 003:863 JLINK_ClrBPEx(BPHandle = 0x00000009)  returns 0x00 (0000ms, 1100ms total)
T3A0C 003:863 JLINK_ReadReg(R0)  returns 0x00000000 (0000ms, 1100ms total)
T3A0C 003:868 JLINK_WriteMem(0x20000198, 0x0400 Bytes, ...) - Data: 08 43 19 46 70 47 20 2A 06 DB CB 17 20 3A 41 FA ... -- CPU_WriteMem(1024 bytes @ 0x20000198)  returns 0x400 (0004ms, 1104ms total)
T3A0C 003:872 JLINK_WriteReg(R0, 0x08000800)  returns 0x00 (0000ms, 1104ms total)
T3A0C 003:872 JLINK_WriteReg(R1, 0x00000400)  returns 0x00 (0000ms, 1104ms total)
T3A0C 003:872 JLINK_WriteReg(R2, 0x20000198)  returns 0x00 (0000ms, 1104ms total)
T3A0C 003:872 JLINK_WriteReg(R3, 0x00000000)  returns 0x00 (0000ms, 1104ms total)
T3A0C 003:872 JLINK_WriteReg(R4, 0x00000000)  returns 0x00 (0000ms, 1104ms total)
T3A0C 003:872 JLINK_WriteReg(R5, 0x00000000)  returns 0x00 (0000ms, 1104ms total)
T3A0C 003:872 JLINK_WriteReg(R6, 0x00000000)  returns 0x00 (0000ms, 1104ms total)
T3A0C 003:872 JLINK_WriteReg(R7, 0x00000000)  returns 0x00 (0001ms, 1105ms total)
T3A0C 003:873 JLINK_WriteReg(R8, 0x00000000)  returns 0x00 (0000ms, 1105ms total)
T3A0C 003:873 JLINK_WriteReg(R9, 0x20000194)  returns 0x00 (0000ms, 1105ms total)
T3A0C 003:873 JLINK_WriteReg(R10, 0x00000000)  returns 0x00 (0000ms, 1105ms total)
T3A0C 003:873 JLINK_WriteReg(R11, 0x00000000)  returns 0x00 (0000ms, 1105ms total)
T3A0C 003:873 JLINK_WriteReg(R12, 0x00000000)  returns 0x00 (0000ms, 1105ms total)
T3A0C 003:873 JLINK_WriteReg(R13 (SP), 0x20001000)  returns 0x00 (0000ms, 1105ms total)
T3A0C 003:873 JLINK_WriteReg(R14, 0x20000001)  returns 0x00 (0000ms, 1105ms total)
T3A0C 003:873 JLINK_WriteReg(R15 (PC), 0x20000120)  returns 0x00 (0000ms, 1105ms total)
T3A0C 003:873 JLINK_WriteReg(XPSR, 0x01000000)  returns 0x00 (0000ms, 1105ms total)
T3A0C 003:873 JLINK_WriteReg(MSP, 0x20001000)  returns 0x00 (0000ms, 1105ms total)
T3A0C 003:873 JLINK_WriteReg(PSP, 0x20001000)  returns 0x00 (0000ms, 1105ms total)
T3A0C 003:873 JLINK_WriteReg(CFBP, 0x00000000)  returns 0x00 (0000ms, 1105ms total)
T3A0C 003:873 JLINK_SetBPEx(Addr = 0x20000000, Type = 0xFFFFFFF2)  returns 0x0000000A (0000ms, 1105ms total)
T3A0C 003:873 JLINK_Go() -- CPU_ReadMem(4 bytes @ 0xE0001000) (0002ms, 1107ms total)
T3A0C 003:875 JLINK_IsHalted()  returns FALSE (0001ms, 1108ms total)
T3A0C 003:877 JLINK_IsHalted()  returns FALSE (0000ms, 1107ms total)
T3A0C 003:880 JLINK_IsHalted() -- CPU_ReadMem(2 bytes @ 0x20000000)  returns TRUE (0002ms, 1109ms total)
T3A0C 003:882 JLINK_ReadReg(R15 (PC))  returns 0x20000000 (0000ms, 1107ms total)
T3A0C 003:882 JLINK_ClrBPEx(BPHandle = 0x0000000A)  returns 0x00 (0001ms, 1108ms total)
T3A0C 003:883 JLINK_ReadReg(R0)  returns 0x00000000 (0000ms, 1108ms total)
T3A0C 003:892 JLINK_WriteMem(0x20000198, 0x0400 Bytes, ...) - Data: 3C 22 F0 31 68 46 FF F7 E6 FB 09 48 B0 EE 68 1A ... -- CPU_WriteMem(1024 bytes @ 0x20000198)  returns 0x400 (0004ms, 1112ms total)
T3A0C 003:896 JLINK_WriteReg(R0, 0x08000C00)  returns 0x00 (0000ms, 1112ms total)
T3A0C 003:896 JLINK_WriteReg(R1, 0x00000400)  returns 0x00 (0000ms, 1112ms total)
T3A0C 003:896 JLINK_WriteReg(R2, 0x20000198)  returns 0x00 (0000ms, 1112ms total)
T3A0C 003:896 JLINK_WriteReg(R3, 0x00000000)  returns 0x00 (0000ms, 1112ms total)
T3A0C 003:896 JLINK_WriteReg(R4, 0x00000000)  returns 0x00 (0000ms, 1112ms total)
T3A0C 003:896 JLINK_WriteReg(R5, 0x00000000)  returns 0x00 (0000ms, 1112ms total)
T3A0C 003:896 JLINK_WriteReg(R6, 0x00000000)  returns 0x00 (0000ms, 1112ms total)
T3A0C 003:896 JLINK_WriteReg(R7, 0x00000000)  returns 0x00 (0000ms, 1112ms total)
T3A0C 003:896 JLINK_WriteReg(R8, 0x00000000)  returns 0x00 (0000ms, 1112ms total)
T3A0C 003:896 JLINK_WriteReg(R9, 0x20000194)  returns 0x00 (0000ms, 1112ms total)
T3A0C 003:896 JLINK_WriteReg(R10, 0x00000000)  returns 0x00 (0000ms, 1112ms total)
T3A0C 003:897 JLINK_WriteReg(R11, 0x00000000)  returns 0x00 (0000ms, 1113ms total)
T3A0C 003:897 JLINK_WriteReg(R12, 0x00000000)  returns 0x00 (0000ms, 1113ms total)
T3A0C 003:897 JLINK_WriteReg(R13 (SP), 0x20001000)  returns 0x00 (0000ms, 1113ms total)
T3A0C 003:897 JLINK_WriteReg(R14, 0x20000001)  returns 0x00 (0000ms, 1113ms total)
T3A0C 003:897 JLINK_WriteReg(R15 (PC), 0x20000120)  returns 0x00 (0000ms, 1113ms total)
T3A0C 003:897 JLINK_WriteReg(XPSR, 0x01000000)  returns 0x00 (0000ms, 1113ms total)
T3A0C 003:897 JLINK_WriteReg(MSP, 0x20001000)  returns 0x00 (0000ms, 1113ms total)
T3A0C 003:897 JLINK_WriteReg(PSP, 0x20001000)  returns 0x00 (0000ms, 1113ms total)
T3A0C 003:897 JLINK_WriteReg(CFBP, 0x00000000)  returns 0x00 (0000ms, 1113ms total)
T3A0C 003:897 JLINK_SetBPEx(Addr = 0x20000000, Type = 0xFFFFFFF2)  returns 0x0000000B (0000ms, 1113ms total)
T3A0C 003:897 JLINK_Go() -- CPU_ReadMem(4 bytes @ 0xE0001000) (0002ms, 1115ms total)
T3A0C 003:899 JLINK_IsHalted()  returns FALSE (0000ms, 1115ms total)
T3A0C 003:913 JLINK_IsHalted() -- CPU_ReadMem(2 bytes @ 0x20000000)  returns TRUE (0002ms, 1117ms total)
T3A0C 003:915 JLINK_ReadReg(R15 (PC))  returns 0x20000000 (0000ms, 1115ms total)
T3A0C 003:916 JLINK_ClrBPEx(BPHandle = 0x0000000B)  returns 0x00 (0000ms, 1116ms total)
T3A0C 003:916 JLINK_ReadReg(R0)  returns 0x00000000 (0000ms, 1116ms total)
T3A0C 003:921 JLINK_WriteMem(0x20000198, 0x0400 Bytes, ...) - Data: FF F7 A2 FA 41 EC 19 0B B4 F9 02 00 FF F7 7D FB ... -- CPU_WriteMem(1024 bytes @ 0x20000198)  returns 0x400 (0004ms, 1120ms total)
T3A0C 003:925 JLINK_WriteReg(R0, 0x08001000)  returns 0x00 (0000ms, 1120ms total)
T3A0C 003:925 JLINK_WriteReg(R1, 0x00000400)  returns 0x00 (0000ms, 1120ms total)
T3A0C 003:925 JLINK_WriteReg(R2, 0x20000198)  returns 0x00 (0000ms, 1120ms total)
T3A0C 003:925 JLINK_WriteReg(R3, 0x00000000)  returns 0x00 (0001ms, 1121ms total)
T3A0C 003:926 JLINK_WriteReg(R4, 0x00000000)  returns 0x00 (0000ms, 1121ms total)
T3A0C 003:926 JLINK_WriteReg(R5, 0x00000000)  returns 0x00 (0000ms, 1121ms total)
T3A0C 003:926 JLINK_WriteReg(R6, 0x00000000)  returns 0x00 (0000ms, 1121ms total)
T3A0C 003:926 JLINK_WriteReg(R7, 0x00000000)  returns 0x00 (0000ms, 1121ms total)
T3A0C 003:926 JLINK_WriteReg(R8, 0x00000000)  returns 0x00 (0000ms, 1121ms total)
T3A0C 003:926 JLINK_WriteReg(R9, 0x20000194)  returns 0x00 (0000ms, 1121ms total)
T3A0C 003:926 JLINK_WriteReg(R10, 0x00000000)  returns 0x00 (0000ms, 1121ms total)
T3A0C 003:926 JLINK_WriteReg(R11, 0x00000000)  returns 0x00 (0000ms, 1121ms total)
T3A0C 003:926 JLINK_WriteReg(R12, 0x00000000)  returns 0x00 (0000ms, 1121ms total)
T3A0C 003:926 JLINK_WriteReg(R13 (SP), 0x20001000)  returns 0x00 (0000ms, 1121ms total)
T3A0C 003:926 JLINK_WriteReg(R14, 0x20000001)  returns 0x00 (0000ms, 1121ms total)
T3A0C 003:926 JLINK_WriteReg(R15 (PC), 0x20000120)  returns 0x00 (0000ms, 1121ms total)
T3A0C 003:926 JLINK_WriteReg(XPSR, 0x01000000)  returns 0x00 (0000ms, 1121ms total)
T3A0C 003:926 JLINK_WriteReg(MSP, 0x20001000)  returns 0x00 (0000ms, 1121ms total)
T3A0C 003:926 JLINK_WriteReg(PSP, 0x20001000)  returns 0x00 (0000ms, 1121ms total)
T3A0C 003:926 JLINK_WriteReg(CFBP, 0x00000000)  returns 0x00 (0000ms, 1121ms total)
T3A0C 003:926 JLINK_SetBPEx(Addr = 0x20000000, Type = 0xFFFFFFF2)  returns 0x0000000C (0000ms, 1121ms total)
T3A0C 003:926 JLINK_Go() -- CPU_ReadMem(4 bytes @ 0xE0001000) (0002ms, 1123ms total)
T3A0C 003:928 JLINK_IsHalted()  returns FALSE (0001ms, 1124ms total)
T3A0C 003:942 JLINK_IsHalted() -- CPU_ReadMem(2 bytes @ 0x20000000)  returns TRUE (0003ms, 1126ms total)
T3A0C 003:945 JLINK_ReadReg(R15 (PC))  returns 0x20000000 (0000ms, 1123ms total)
T3A0C 003:945 JLINK_ClrBPEx(BPHandle = 0x0000000C)  returns 0x00 (0000ms, 1123ms total)
T3A0C 003:945 JLINK_ReadReg(R0)  returns 0x00000000 (0000ms, 1123ms total)
T3A0C 003:951 JLINK_WriteMem(0x20000198, 0x0400 Bytes, ...) - Data: 01 03 C0 F8 00 32 D0 F8 00 32 23 F4 7C 53 C0 F8 ... -- CPU_WriteMem(1024 bytes @ 0x20000198)  returns 0x400 (0005ms, 1128ms total)
T3A0C 003:956 JLINK_WriteReg(R0, 0x08001400)  returns 0x00 (0000ms, 1128ms total)
T3A0C 003:956 JLINK_WriteReg(R1, 0x00000400)  returns 0x00 (0000ms, 1128ms total)
T3A0C 003:956 JLINK_WriteReg(R2, 0x20000198)  returns 0x00 (0000ms, 1128ms total)
T3A0C 003:956 JLINK_WriteReg(R3, 0x00000000)  returns 0x00 (0000ms, 1128ms total)
T3A0C 003:956 JLINK_WriteReg(R4, 0x00000000)  returns 0x00 (0000ms, 1128ms total)
T3A0C 003:956 JLINK_WriteReg(R5, 0x00000000)  returns 0x00 (0000ms, 1128ms total)
T3A0C 003:956 JLINK_WriteReg(R6, 0x00000000)  returns 0x00 (0000ms, 1128ms total)
T3A0C 003:956 JLINK_WriteReg(R7, 0x00000000)  returns 0x00 (0000ms, 1128ms total)
T3A0C 003:956 JLINK_WriteReg(R8, 0x00000000)  returns 0x00 (0000ms, 1128ms total)
T3A0C 003:956 JLINK_WriteReg(R9, 0x20000194)  returns 0x00 (0000ms, 1128ms total)
T3A0C 003:956 JLINK_WriteReg(R10, 0x00000000)  returns 0x00 (0000ms, 1128ms total)
T3A0C 003:956 JLINK_WriteReg(R11, 0x00000000)  returns 0x00 (0000ms, 1128ms total)
T3A0C 003:956 JLINK_WriteReg(R12, 0x00000000)  returns 0x00 (0000ms, 1128ms total)
T3A0C 003:956 JLINK_WriteReg(R13 (SP), 0x20001000)  returns 0x00 (0000ms, 1128ms total)
T3A0C 003:956 JLINK_WriteReg(R14, 0x20000001)  returns 0x00 (0000ms, 1128ms total)
T3A0C 003:956 JLINK_WriteReg(R15 (PC), 0x20000120)  returns 0x00 (0000ms, 1128ms total)
T3A0C 003:956 JLINK_WriteReg(XPSR, 0x01000000)  returns 0x00 (0000ms, 1128ms total)
T3A0C 003:956 JLINK_WriteReg(MSP, 0x20001000)  returns 0x00 (0000ms, 1128ms total)
T3A0C 003:956 JLINK_WriteReg(PSP, 0x20001000)  returns 0x00 (0000ms, 1128ms total)
T3A0C 003:956 JLINK_WriteReg(CFBP, 0x00000000)  returns 0x00 (0000ms, 1128ms total)
T3A0C 003:956 JLINK_SetBPEx(Addr = 0x20000000, Type = 0xFFFFFFF2)  returns 0x0000000D (0000ms, 1128ms total)
T3A0C 003:956 JLINK_Go() -- CPU_ReadMem(4 bytes @ 0xE0001000) (0002ms, 1130ms total)
T3A0C 003:958 JLINK_IsHalted()  returns FALSE (0001ms, 1131ms total)
T3A0C 003:973 JLINK_IsHalted() -- CPU_ReadMem(2 bytes @ 0x20000000)  returns TRUE (0002ms, 1132ms total)
T3A0C 003:975 JLINK_ReadReg(R15 (PC))  returns 0x20000000 (0000ms, 1130ms total)
T3A0C 003:975 JLINK_ClrBPEx(BPHandle = 0x0000000D)  returns 0x00 (0001ms, 1131ms total)
T3A0C 003:976 JLINK_ReadReg(R0)  returns 0x00000000 (0000ms, 1131ms total)
T3A0C 003:988 JLINK_WriteMem(0x20000198, 0x0400 Bytes, ...) - Data: 01 60 00 F0 F1 FC 07 46 1C E0 41 F0 80 01 BE E7 ... -- CPU_WriteMem(1024 bytes @ 0x20000198)  returns 0x400 (0006ms, 1137ms total)
T3A0C 003:994 JLINK_WriteReg(R0, 0x08001800)  returns 0x00 (0000ms, 1137ms total)
T3A0C 003:994 JLINK_WriteReg(R1, 0x00000400)  returns 0x00 (0000ms, 1137ms total)
